# HZ S RI R 50
14310000 0.9892999628919887 -0.1298075697353154 1.828306384709543e-05 0.001339710256208418 0 0 0 0
14310037 0.989277237974144 -0.1301335109215502 0.00022140764980860335 0.001327846841903129 0 0 0 0
14310074 0.9888947038008843 -0.13075817287641442 0.00021527485158788484 0.0013772909429984952 0 0 0 0
14310111 0.9889645355647597 -0.13144967032516 0.00015839466789724458 0.001476472783524767 0 0 0 0
14310148 0.9887466505292113 -0.13209925289671856 8.251297777668193e-05 0.0013860340265129084 0 0 0 0
14310185 0.988640702794052 -0.13313703300241556 0.00022650737096161598 0.001436713326845511 0 0 0 0
14310222 0.988850061694482 -0.13360245718998826 0.00014853822458692637 0.0014588967124026582 0 0 0 0
14310259 0.9885813630880949 -0.13397016188337849 0.00020070924980651123 0.0014762133771893955 0 0 0 0
14310296 0.9881967783333477 -0.13460976861243462 0.00020379349732621931 0.001431331166956004 0 0 0 0
14310333 0.988326190671794 -0.13539601243821459 0.0001731132889416447 0.0015665757645574381 0 0 0 0
14310370 0.987928383819526 -0.13584190436289917 0.0001505746597393011 0.0015411989061453382 0 0 0 0
14310407 0.9880519188498237 -0.13680061603173793 0.0001665425814387734 0.0015114206427611317 0 0 0 0
14310444 0.9879339462768107 -0.1376041001144041 0.0002424252843151071 0.00151368159060591 0 0 0 0
14310481 0.9879428194447081 -0.13824285186549287 0.0001290357213022003 0.0016528188062240477 0 0 0 0
14310518 0.9876625656362822 -0.1387261661327268 0.0002183250024820266 0.0018030115520005832 0 0 0 0
14310555 0.9872963215274427 -0.13979392019606393 0.00022606422336164154 0.0016573159658171573 0 0 0 0
14310592 0.9873565330698132 -0.14027586246568424 0.0002467044734738321 0.0017728609122150893 0 0 0 0
14310629 0.9873193906501183 -0.14116016652494434 0.00016266920533578532 0.0018005932630066124 0 0 0 0
14310666 0.9871915685725722 -0.14179164650106416 0.0002501265206799874 0.001735699752373225 0 0 0 0
14310703 0.9874124254825766 -0.14239120197806945 0.00024793983974949496 0.0017531974310103365 0 0 0 0
14310740 0.9870674075695037 -0.14310813857505036 0.0002318759541828477 0.0017986047851886334 0 0 0 0
14310777 0.9867481518510303 -0.14404903655271215 0.00025493748494796807 0.0019323981402291906 0 0 0 0
14310814 0.9865615895326308 -0.1445346536726003 0.00027688845550479467 0.0018276627989423939 0 0 0 0
14310851 0.9864878929149696 -0.1455661439577477 0.00037343415719157623 0.0019936930078599552 0 0 0 0
14310888 0.9865195370412013 -0.146615935764866 0.0004538397517892904 0.0018961745539335913 0 0 0 0
14310925 0.9863077382585791 -0.14701008671443888 0.0002976723630711515 0.0019431679748309872 0 0 0 0
14310962 0.9860257464917436 -0.14788034648550274 0.00017933780205568931 0.0020482592812381766 0 0 0 0
14310999 0.9857826222973729 -0.14885080440780488 0.0003238529907769427 0.0020783216786929705 0 0 0 0
14311036 0.9858322562105898 -0.14938058116077352 0.00028102455619048624 0.002225796368143141 0 0 0 0
14311073 0.9854926968937807 -0.1505592424728113 0.00029691737101523926 0.0021661977363958062 0 0 0 0
14311110 0.9854995980254105 -0.15145180700506525 0.00022073215120347703 0.0023162800215192378 0 0 0 0
14311147 0.9856635794413311 -0.1521328932843175 0.0001908376547779204 0.002276804354388879 0 0 0 0
14311184 0.9849841178725105 -0.15287920478929737 0.0003195431326539904 0.0023145181941174515 0 0 0 0
14311221 0.9848664421306345 -0.15391082597520048 0.00031447538790151987 0.0024664755807013413 0 0 0 0
14311258 0.9848997439387054 -0.1545708799413812 0.00036702260378753516 0.0024089365531903893 0 0 0 0
14311295 0.9845417429530904 -0.15584000378615065 0.0003701085284630019 0.002403130612903328 0 0 0 0
14311332 0.9845363248540203 -0.156697537715627 0.00034853989092025384 0.0025566541842281937 0 0 0 0
14311369 0.9844619679059278 -0.157662683861524 0.0004762281387522322 0.0026324931674171904 0 0 0 0
14311406 0.9839080757599084 -0.15837490560384615 0.0003123548018031874 0.0026608654433838324 0 0 0 0
14311443 0.9837064137616957 -0.15963371185906047 0.0004482342495137031 0.0026966655105199687 0 0 0 0
14311480 0.98379974455431 -0.16079705809438516 0.0003337140632925097 0.002708872053395171 0 0 0 0
14311517 0.9832314599335064 -0.16166853326913483 0.000416516734095408 0.002740399461382901 0 0 0 0
14311554 0.9833141166461626 -0.1626391638187423 0.00045524202501192424 0.0028065198329601843 0 0 0 0
14311591 0.9832771790763356 -0.1635989681605745 0.0004552341384668093 0.0030101133933510215 0 0 0 0
14311628 0.9826658780794262 -0.16446209835547126 0.0004541379103828715 0.0030479477498367917 0 0 0 0
14311665 0.9824542955760006 -0.16570348208929023 0.0005622913162870824 0.002986147595140514 0 0 0 0
14311702 0.9823105464540929 -0.16716619016467724 0.0005003568087664346 0.003096103986677524 0 0 0 0
14311739 0.9819061214159478 -0.1678464123250032 0.0005854596837132308 0.003107054583887216 0 0 0 0
14311776 0.9819918801492964 -0.16918870655818424 0.0005456167798008995 0.003312139214000118 0 0 0 0
14311813 0.9818357518266759 -0.1701558863648866 0.0005152092401642655 0.0032688816343726655 0 0 0 0
14311850 0.9813913726245107 -0.1711243849384267 0.0005698334481624857 0.003390275097573886 0 0 0 0
14311887 0.9808824086310125 -0.1722887694297539 0.0006964512276391648 0.003473321141166838 0 0 0 0
14311924 0.9807092280545736 -0.17370708261267023 0.0005950680040348841 0.003564767714515412 0 0 0 0
14311961 0.9803914140568843 -0.17475673532729233 0.0006808838482068234 0.0036727988503400624 0 0 0 0
14311998 0.9801147871809374 -0.17600480715930672 0.0007752692743142535 0.0036994688316675664 0 0 0 0
14312035 0.9801174853618722 -0.17732843639050438 0.0006634923040699399 0.003933504128774003 0 0 0 0
14312072 0.9796147027586879 -0.17824420144550226 0.0007125655656345799 0.0038675340489836376 0 0 0 0
14312109 0.9792379775593985 -0.1797886028837026 0.0007008183525629576 0.003921724733832704 0 0 0 0
14312146 0.978992514987889 -0.18125206484270825 0.0008508883599114919 0.004124984210521509 0 0 0 0
14312183 0.9790222600921387 -0.1826799651673728 0.0007747255608138765 0.0043179902999152375 0 0 0 0
14312220 0.9784113017143705 -0.1840411380891694 0.0008936821410645564 0.0044381736523953115 0 0 0 0
14312257 0.9782484495419002 -0.18520915828473877 0.000791659049119916 0.004325803212241947 0 0 0 0
14312294 0.9778297958623436 -0.18655633266688623 0.0007903061075788502 0.004514976303424162 0 0 0 0
14312331 0.9772156318496775 -0.18805772006130486 0.0008263321770252994 0.004647372561423557 0 0 0 0
14312368 0.9770431355147731 -0.189601154892411 0.0009980146367149162 0.004816367882102113 0 0 0 0
14312405 0.976678733262428 -0.19126704383498813 0.0010189054717291155 0.004741200926023948 0 0 0 0
14312442 0.9762200099501019 -0.19294185853727225 0.0009534644049766984 0.004956488762212866 0 0 0 0
14312479 0.976063338211272 -0.19440237865497445 0.000985422801438139 0.005083297658276755 0 0 0 0
14312516 0.9759425083929735 -0.19548914499206374 0.0010318196796140484 0.005304075075364256 0 0 0 0
14312553 0.9750653186087205 -0.19729082257093306 0.001168281229812702 0.005444312275048338 0 0 0 0
14312590 0.9744597107883691 -0.1990932696351979 0.0010315844169514034 0.0055703277992464415 0 0 0 0
14312627 0.9745128601695497 -0.20098356809856566 0.0012898926015343225 0.0056660119830907575 0 0 0 0
14312664 0.9737325514703138 -0.202687253005095 0.0012155649873177284 0.0058995011042341375 0 0 0 0
14312701 0.9734614252066408 -0.2040485702856219 0.0014263665665178882 0.005948117036232005 0 0 0 0
14312738 0.9727958157392019 -0.2062019937319083 0.0014255605708398897 0.0061642723873378555 0 0 0 0
14312775 0.9722564389372308 -0.20786199058998492 0.0013517736721147793 0.006285522475524424 0 0 0 0
14312812 0.9719997473058446 -0.2098456568819731 0.0015605380216010879 0.006492563838111966 0 0 0 0
14312849 0.9711348617958516 -0.2118382870879079 0.0014414115379396185 0.006767464380905928 0 0 0 0
14312886 0.9705517201741167 -0.2136329815483466 0.0015953585098173793 0.006872023112130109 0 0 0 0
14312923 0.9703153150459308 -0.21553345469347032 0.0016462699233956914 0.0071540854577751755 0 0 0 0
14312960 0.9696077669206022 -0.21766226365622288 0.0017564315053256116 0.00749982783524797 0 0 0 0
14312997 0.9693410136768353 -0.21967818975625372 0.0019449893033547487 0.007745448404660167 0 0 0 0
14313034 0.9684914594640791 -0.22192939383872456 0.0020155985456718124 0.007997877014705994 0 0 0 0
14313071 0.9684711438051465 -0.22401314372928996 0.002171166527647126 0.008222804130601257 0 0 0 0
14313108 0.9672431660528777 -0.22650719335531921 0.0022255146689514234 0.00857111450915296 0 0 0 0
14313145 0.9667636143664474 -0.2289031986137961 0.0023883504516501223 0.008881894538579325 0 0 0 0
14313182 0.9661524659450395 -0.23099653916634738 0.00239531271683681 0.009106640368153581 0 0 0 0
14313219 0.9652243403325226 -0.23309800981283693 0.0025880153045862247 0.009395334310862412 0 0 0 0
14313256 0.9644394546072095 -0.23586510418251122 0.0027217427172205938 0.009637825664188207 0 0 0 0
14313293 0.9636400171732085 -0.23842926441430512 0.0027497320636011547 0.010007633977419233 0 0 0 0
14313330 0.9626645992816418 -0.24082001598193112 0.0030221430532952876 0.010351020220693154 0 0 0 0
14313367 0.9620508405898583 -0.24357245113832013 0.0029597556567577217 0.010788475358124704 0 0 0 0
14313404 0.9614070648348992 -0.24641839707766094 0.0031360102307354245 0.01111003051509671 0 0 0 0
14313441 0.9605819063443558 -0.2489625444071363 0.00329007142318449 0.01141773811781765 0 0 0 0
14313478 0.9592523955193698 -0.2516734879723476 0.0034236454354221726 0.012038884496917627 0 0 0 0
14313515 0.9583483591544686 -0.25487424428069866 0.0037229669326167753 0.012480014377216317 0 0 0 0
14313552 0.957356372733126 -0.25776904158644165 0.0039017860705826586 0.013127111507516238 0 0 0 0
14313589 0.9560519088215518 -0.260979708397856 0.003990310409670451 0.013667514171503818 0 0 0 0
14313626 0.955459051382035 -0.26426444503587454 0.004378597956626493 0.01415953150998786 0 0 0 0
14313663 0.9540718121315034 -0.26720650928032946 0.004619140250212959 0.014854190621017347 0 0 0 0
14313700 0.9527942091397462 -0.2706984620674879 0.004995885927970227 0.015556967386036359 0 0 0 0
14313737 0.9515964208135899 -0.273912452904038 0.005303049587919742 0.0160952882558561 0 0 0 0
14313774 0.9500578406650021 -0.27764390567316116 0.005737407999217124 0.01699304078883371 0 0 0 0
14313811 0.948585300352502 -0.2815354994542789 0.006198958400683563 0.017815614104898302 0 0 0 0
14313848 0.9471141445403878 -0.28539529674310626 0.006458221162027073 0.0185507487559006 0 0 0 0
14313885 0.9454289578934969 -0.28885301817436543 0.007091156966437747 0.019512218224971078 0 0 0 0
14313922 0.9440367514172103 -0.2933531696129761 0.007737490435555045 0.020373523018558704 0 0 0 0
14313959 0.9423886487639143 -0.2973233895461483 0.008281093203426923 0.021279937454389712 0 0 0 0
14313996 0.9404393973984652 -0.3012814579644502 0.0090667296272873 0.02227835799500812 0 0 0 0
14314033 0.9381841949910713 -0.3060686643796183 0.009672211139434997 0.02333589829129543 0 0 0 0
14314070 0.9361618269179453 -0.31093540234724826 0.01040152226062498 0.02455075616411979 0 0 0 0
14314107 0.9341125566114867 -0.31547418128203253 0.011202612301625139 0.02568845293803109 0 0 0 0
14314144 0.931647536024349 -0.3204374661875955 0.012209405893478747 0.0270677537133697 0 0 0 0
14314181 0.928982316148067 -0.3252951155239064 0.01309422980712107 0.028434090795798044 0 0 0 0
14314218 0.9261739137970552 -0.3303994366522103 0.014117413249795405 0.02979490148722331 0 0 0 0
14314255 0.9234498231978006 -0.33597908608645544 0.015153116302388215 0.031510738011105335 0 0 0 0
14314292 0.9204563654074588 -0.3417358713792505 0.016398043698483616 0.0331254230897827 0 0 0 0
14314329 0.9173766137165116 -0.34730166609599905 0.017701237327158875 0.03520116585784364 0 0 0 0
14314366 0.9134927921285814 -0.3535279416543795 0.019033823787639688 0.03734024277707273 0 0 0 0
14314403 0.9102325192872126 -0.3594217943268027 0.02080979473783273 0.0397900836369804 0 0 0 0
14314440 0.9057727736871278 -0.366097947043086 0.023010969282299724 0.04234104514234991 0 0 0 0
14314477 0.9013350393290198 -0.3730139688719119 0.025294882665807514 0.04520062050061198 0 0 0 0
14314514 0.8969948992392087 -0.38022500041720697 0.028057453891102566 0.048385591824502305 0 0 0 0
14314551 0.8918794682048947 -0.3874036063433024 0.031135002952246256 0.05179405651155994 0 0 0 0
14314588 0.8858119444796753 -0.3953066441411454 0.0349817249456988 0.055496865792467674 0 0 0 0
14314625 0.8800948165176958 -0.40311665101511973 0.039295671359029546 0.05949768166362064 0 0 0 0
14314662 0.8727468352734505 -0.41114259432752726 0.0445088063497914 0.06404165945375363 0 0 0 0
14314699 0.8654916332075909 -0.41928059658164685 0.05058210109953189 0.0686164768717889 0 0 0 0
14314736 0.8576371887495009 -0.4283780013035188 0.05790208013089136 0.0733341200391322 0 0 0 0
14314773 0.848576601335197 -0.4370126961321238 0.0664650071060937 0.07845014719422741 0 0 0 0
14314810 0.8385800908708434 -0.44602380441905387 0.07651508289821245 0.08309285860231125 0 0 0 0
14314847 0.8277233181035237 -0.45590115632775935 0.08817018848110969 0.08793900968268806 0 0 0 0
14314884 0.8151307205167476 -0.46551131139394697 0.10211646860440395 0.09212862788091568 0 0 0 0
14314921 0.8009604143683106 -0.4754239010657783 0.11821434306517721 0.09579131311299784 0 0 0 0
14314958 0.7849322704751279 -0.4853554532272398 0.13699726365204246 0.09860739879243563 0 0 0 0
14314995 0.7666376112900256 -0.4940158081391539 0.15926702913066162 0.09974441696933219 0 0 0 0
14315032 0.7455949355641014 -0.5017306513961493 0.1850761088108246 0.09820297610442752 0 0 0 0
14315069 0.7222395972224096 -0.5076247834905193 0.21507205864245166 0.09279747892790104 0 0 0 0
14315106 0.6957725828079998 -0.5105884684785822 0.2485913169032162 0.08138096665559233 0 0 0 0
14315143 0.6672029734430968 -0.5097734470986692 0.28561647599377327 0.062180584892076056 0 0 0 0
14315180 0.6374331747563796 -0.5035960177558964 0.32395368634644567 0.03221741261357284 0 0 0 0
14315217 0.6081623410306704 -0.49090506962054614 0.3601130304530954 -0.010566870628460684 0 0 0 0
14315254 0.5811503936607203 -0.47119281845364114 0.3887263592414627 -0.06680306414651592 0 0 0 0
14315291 0.5601596071950158 -0.44500009656765305 0.4041209028101727 -0.135407908654635 0 0 0 0
14315328 0.547665567814297 -0.4144687561948787 0.40056969825025657 -0.21022501873699156 0 0 0 0
14315365 0.5462920650581048 -0.3837746737787943 0.37550377619141456 -0.28318480154714876 0 0 0 0
14315402 0.5553358192476929 -0.3584117262193137 0.3322867427106951 -0.34537748956127773 0 0 0 0
14315439 0.5719806824296825 -0.341413226877849 0.2774668743172971 -0.3916408201071781 0 0 0 0
14315476 0.5903577721938201 -0.33506945555952805 0.21955800773297782 -0.42129426995400315 0 0 0 0
14315513 0.6067013918666909 -0.33923926070537136 0.16426464801162804 -0.4371205755175224 0 0 0 0
14315550 0.6182914240337727 -0.34925589814941616 0.11451694349571409 -0.4435052266829862 0 0 0 0
14315587 0.623531019131746 -0.3647212876038924 0.07073967068957943 -0.444954240371023 0 0 0 0
14315624 0.6234006191499701 -0.3823087861496168 0.03198811462852506 -0.44401761028149067 0 0 0 0
14315661 0.6177701211897043 -0.40101334157631313 -0.003077654334778279 -0.44154604020025023 0 0 0 0
14315698 0.6065457320387356 -0.4195907474660225 -0.03557370224947152 -0.43933725038489885 0 0 0 0
14315735 0.5903277403822833 -0.43814057417227376 -0.06695059499608219 -0.437369346250498 0 0 0 0
14315772 0.5701486149081261 -0.4560964300585549 -0.09779562430515919 -0.4357990183541969 0 0 0 0
14315809 0.5448923861615427 -0.47220403518599274 -0.12942223003243503 -0.4341286829057109 0 0 0 0
14315846 0.515792464243152 -0.48645112328071044 -0.16279487754920974 -0.43282501349083924 0 0 0 0
14315883 0.48096783191746356 -0.4985121317552845 -0.19784307739606016 -0.430664371889071 0 0 0 0
14315920 0.4403025743708314 -0.5069825916150977 -0.23609810693076985 -0.42723017431490196 0 0 0 0
14315957 0.39554537835665526 -0.5110307745643781 -0.27833533084473006 -0.42109743499872343 0 0 0 0
14315994 0.3462055736767237 -0.5084887064990745 -0.3239647074380556 -0.4110301560053273 0 0 0 0
14316031 0.29117448090982445 -0.49849663326480204 -0.37386269332666505 -0.39550591885342273 0 0 0 0
14316068 0.23423746527840592 -0.47890801305105096 -0.42674218237791073 -0.3718188764790466 0 0 0 0
14316105 0.1757308142669848 -0.4478403757938321 -0.48135165336767394 -0.3381086497877617 0 0 0 0
14316142 0.11836048047901335 -0.4031741830116372 -0.5351859016658398 -0.2926587371982919 0 0 0 0
14316179 0.06612909354395724 -0.34532673700323546 -0.5847243612704061 -0.23384486599846957 0 0 0 0
14316216 0.02365967015258213 -0.27339901706967557 -0.625006974672855 -0.16186504386269882 0 0 0 0
14316253 -0.004550281982776517 -0.1901004438294915 -0.6511165600723715 -0.0789202279336198 0 0 0 0
14316290 -0.013936115809939545 -0.09966439216955578 -0.6595529568376574 0.010105241546854236 0 0 0 0
14316327 -0.0020977756263852523 -0.006208714401847982 -0.6488024612418644 0.0993756333520833 0 0 0 0
14316364 0.031025278479365755 0.08124728517938964 -0.619874402936813 0.18233075692021783 0 0 0 0
14316401 0.08234753696822347 0.156149319247708 -0.5765568859048663 0.2540707566504772 0 0 0 0
14316438 0.14691063853529968 0.21402056549440793 -0.5237176580901851 0.3122354144238028 0 0 0 0
14316475 0.22071402447129565 0.253143612409675 -0.4669462227853264 0.35606050248203475 0 0 0 0
14316512 0.29525104531593677 0.2722612707825386 -0.41016104324142544 0.3878437215708091 0 0 0 0
14316549 0.3648887099550184 0.27463812071084487 -0.3559090228188374 0.40958818991666884 0 0 0 0
14316586 0.4275000206689348 0.26268386200104005 -0.3052731700878564 0.42371099894085 0 0 0 0
14316623 0.4817777902659171 0.2385079329535752 -0.25892731563246024 0.4329226046100893 0 0 0 0
14316660 0.5263234368990499 0.2053826082123491 -0.21612756987490428 0.43885325082440824 0 0 0 0
14316697 0.5597821932490664 0.1666344786955726 -0.1762545789057082 0.44278884384458383 0 0 0 0
14316734 0.5832288648685465 0.12245980127512586 -0.13884826895511107 0.445636726743357 0 0 0 0
14316771 0.5958612643204552 0.07446590714769882 -0.1025175309920207 0.4482500279816701 0 0 0 0
14316808 0.5963311417051352 0.024263692520291938 -0.06632073882736625 0.45058138090975475 0 0 0 0
14316845 0.5851348729209839 -0.025939105358195005 -0.029348395479177915 0.45287865128078053 0 0 0 0
14316882 0.5607566327105793 -0.07570598084516279 0.010115196001031862 0.454508348739154 0 0 0 0
14316919 0.5213826151431715 -0.12226392623393897 0.05295722257234993 0.4545136544706868 0 0 0 0
14316956 0.46794156349342697 -0.16162383419202753 0.09966370556729062 0.4511827442160426 0 0 0 0
14316993 0.39880869093421184 -0.1903956136996089 0.15225436977219473 0.442212269412927 0 0 0 0
14317030 0.3136059174848035 -0.2025594271419818 0.20964074699911467 0.42400739368761897 0 0 0 0
14317067 0.21620307574747716 -0.19137548784315467 0.2695483467988316 0.3926210418104799 0 0 0 0
14317104 0.11461976918769508 -0.1496585826580064 0.3271464556176777 0.343467615537495 0 0 0 0
14317141 0.01965600241932492 -0.0725022668729419 0.3736649873954324 0.27653045355221006 0 0 0 0
14317178 -0.05503753148468878 0.03806544593802161 0.40016689803609384 0.19535471038814128 0 0 0 0
14317215 -0.09376839799926673 0.17349734658976015 0.40046638853639227 0.11018604736170552 0 0 0 0
14317252 -0.08870620949104226 0.31734120317945325 0.3756856226962646 0.03371145999283233 0 0 0 0
14317289 -0.0414515184706114 0.4501860367392214 0.3338988482297681 -0.024639313698185956 0 0 0 0
14317326 0.03670040455187692 0.5550987464575202 0.2859381190180977 -0.06293953510176742 0 0 0 0
14317363 0.13073540513770104 0.6288736922087456 0.2392300178142191 -0.08395838035585741 0 0 0 0
14317400 0.22699665247971765 0.6736414539532748 0.1984109715882992 -0.09287787563897604 0 0 0 0
