# HZ S RI R 50
14310000 0.9954719263233057 -0.09572803539825644 -0.005332751340191908 0.005099055179714182 0 0 0 0
14310037 0.9933848691337145 -0.09301752176263366 0.0001619458535310056 0.0010846477469982707 0 0 0 0
14310074 0.9932635080373438 -0.09267716368613105 0.00024727289756159605 0.0014959504016681712 0 0 0 0
14310111 0.9933617838557779 -0.09350818759773884 9.709620876668935e-05 0.0013907108721940968 0 0 0 0
14310148 0.9932928231082693 -0.09354395977703918 6.624910617752494e-05 0.0015165289067016797 0 0 0 0
14310185 0.9930999365096078 -0.09402773463951707 0.00019334945038150883 0.0013964763193077604 0 0 0 0
14310222 0.9933059258948777 -0.09482213304708678 0.00013982774720161726 0.0014093332508196767 0 0 0 0
14310259 0.9931819220825947 -0.09527015868737086 3.93029456631304e-05 0.0014806810086313796 0 0 0 0
14310296 0.9930688749096229 -0.0956311398752734 0.00023618847849180417 0.0015000823284325076 0 0 0 0
14310333 0.992884420115217 -0.09622638713836909 0.0003009034002530178 0.0015154931652415177 0 0 0 0
14310370 0.993072924391202 -0.09663469562537462 0.00018845719513987144 0.0015363581559534741 0 0 0 0
14310407 0.9927498348723838 -0.09704764997260387 0.00026440891900381987 0.0016774669478796546 0 0 0 0
14310444 0.9924914206969306 -0.09791768117189503 0.00014058278007161995 0.0016464418692276601 0 0 0 0
14310481 0.992887800239785 -0.09816793967221464 0.0002150873193043595 0.0017007110846796447 0 0 0 0
14310518 0.9929600294279631 -0.09859815581838402 0.0002902505354825043 0.0017732565046449998 0 0 0 0
14310555 0.9926303488083431 -0.09952301354446942 0.00023995891615007987 0.0017276110972515686 0 0 0 0
14310592 0.9928507442672252 -0.09957492679123511 0.00019673879771789864 0.0018344810052393409 0 0 0 0
14310629 0.9922121052280445 -0.10036254076891708 0.0002270980330834575 0.0017154272184610694 0 0 0 0
14310666 0.9919440526345371 -0.10123920420316371 0.00027766792919807547 0.0017990928415009687 0 0 0 0
14310703 0.9919939352406185 -0.10181126900776818 0.0002273472499146952 0.0018163614942119852 0 0 0 0
14310740 0.9924395511392884 -0.10254009981176732 0.0003802326011796298 0.0018932904490543481 0 0 0 0
14310777 0.9919666651247963 -0.10280428077238733 0.0002680661725347216 0.001866174362180012 0 0 0 0
14310814 0.9919744250418021 -0.10365256385051974 0.00023164364757376912 0.0019388642617068012 0 0 0 0
14310851 0.9917875476712431 -0.10422561810581983 0.00031238927289522535 0.0019530212644191171 0 0 0 0
14310888 0.9914876025279604 -0.10484744071446624 0.00022214410225076693 0.0018837755003249651 0 0 0 0
14310925 0.9914561396869622 -0.10566965453108007 0.0002765763273013345 0.001954494415363609 0 0 0 0
14310962 0.9916870693609304 -0.1061510424803494 0.0003638066950123794 0.002155555390531427 0 0 0 0
14310999 0.991574028113944 -0.10681223458401061 0.0002856674224793489 0.0021300204778514366 0 0 0 0
14311036 0.9910775245914124 -0.10710924608248099 0.00030195951598240695 0.0021595995570379586 0 0 0 0
14311073 0.9912543639927118 -0.1082655859813976 0.00022776397298196872 0.002215727061877812 0 0 0 0
14311110 0.9910161303195529 -0.10870450753256937 0.000448361316297507 0.0023184649205873716 0 0 0 0
14311147 0.9908156049149621 -0.1096420507964681 0.00035838967376251196 0.0021476774098643575 0 0 0 0
14311184 0.9908075601835913 -0.11065650304421938 0.00031884393626750745 0.002414888154561851 0 0 0 0
14311221 0.9909520924279951 -0.1114253631837585 0.00023548066019769885 0.002277260485623157 0 0 0 0
14311258 0.9906717841562425 -0.11160231817515047 0.00030912042839376677 0.0024296471856046376 0 0 0 0
14311295 0.9904952073936488 -0.11262434992214601 0.00044271614806096665 0.0025083082862783217 0 0 0 0
14311332 0.9905167662357761 -0.11311902516464871 0.0004206979941716284 0.002562300400238763 0 0 0 0
14311369 0.9901104120335117 -0.11393063916828605 0.0005254167823710073 0.0024351694235358154 0 0 0 0
14311406 0.98976492233751 -0.11509119657276107 0.0004105095032877469 0.0026617018822832784 0 0 0 0
14311443 0.9900008482272765 -0.11587727398872696 0.00040355634008883135 0.002684028180959377 0 0 0 0
14311480 0.9899316058617433 -0.11652864875649276 0.0003642698176352259 0.0026550937305310665 0 0 0 0
14311517 0.9896273884398233 -0.11744142936238393 0.00042884096249730077 0.0026896219452908353 0 0 0 0
14311554 0.9895679447546316 -0.11826614542215962 0.000426217517602788 0.002815023810539163 0 0 0 0
14311591 0.9896212974630706 -0.11869469676059945 0.0005219438874169994 0.002856077630599113 0 0 0 0
14311628 0.9890062805087034 -0.11969956510841621 0.0005094235019742765 0.002848825731767597 0 0 0 0
14311665 0.988821736459835 -0.12111284559971287 0.00043819203992793846 0.0029791841697832944 0 0 0 0
14311702 0.9889525003958232 -0.1218531431539927 0.0005388609690514043 0.003178414440674723 0 0 0 0
14311739 0.9888594021581534 -0.12211678218481851 0.0005349807143875554 0.003181288106045558 0 0 0 0
14311776 0.9885053102232286 -0.12395276756327073 0.0005785981099015189 0.003129277048114652 0 0 0 0
14311813 0.9884791447194602 -0.12459943299782329 0.0004974893273798444 0.00333974197343524 0 0 0 0
14311850 0.988307515420026 -0.1252570438194235 0.0006576341647265042 0.003152216885767471 0 0 0 0
14311887 0.9879523901032427 -0.12653595056033073 0.0006236770563962663 0.0035853703161581887 0 0 0 0
14311924 0.9878212244636743 -0.12778457735267465 0.0006993813811817786 0.0034095466724590015 0 0 0 0
14311961 0.9877899641532663 -0.12880646340379795 0.0007424653123335036 0.0036367615721850997 0 0 0 0
14311998 0.9875567872104158 -0.12993964759345994 0.0009082571112764712 0.0036532413626066997 0 0 0 0
14312035 0.9875213458082853 -0.1311636432675043 0.0007031491310276647 0.003767258303515608 0 0 0 0
14312072 0.9870110000820917 -0.13196294658957364 0.0008600241796496388 0.0038641402756923265 0 0 0 0
14312109 0.9865557009805641 -0.1328606943429446 0.0008499615432827636 0.003986883286437334 0 0 0 0
14312146 0.9864236113279905 -0.13419507957713503 0.0008482301278289484 0.003935530052169506 0 0 0 0
14312183 0.9864251480543403 -0.13546836214145314 0.0009433649385678382 0.004134301121294225 0 0 0 0
14312220 0.9859880568613433 -0.1363506816405634 0.000830379940946962 0.004206948444427997 0 0 0 0
14312257 0.9858050649778362 -0.13791144594721233 0.0009989016814150996 0.004478339195290519 0 0 0 0
14312294 0.9858214697217331 -0.13903969616847817 0.0009437174262307863 0.004535149068190545 0 0 0 0
14312331 0.9855996194257135 -0.14025733936354054 0.0009428386001638106 0.0047130170509444526 0 0 0 0
14312368 0.9847403834459993 -0.14141863203054242 0.0009816251807438366 0.004565011369584472 0 0 0 0
14312405 0.9846111037232949 -0.1427482327519934 0.0011810592919530526 0.004838642892632988 0 0 0 0
14312442 0.9847265255092722 -0.14405983206536926 0.0011105284600274852 0.004973839640105863 0 0 0 0
14312479 0.9842729797050868 -0.1454957309976566 0.0011146328439695795 0.0050992633626811435 0 0 0 0
14312516 0.9838549445759011 -0.1470962948927199 0.0011325270439123344 0.00520346746893759 0 0 0 0
14312553 0.9839494907850127 -0.14854564072773702 0.0011466280670045614 0.0054734548953008924 0 0 0 0
14312590 0.9833461838676486 -0.14977030307709377 0.0011814837071461983 0.005483244232113187 0 0 0 0
14312627 0.9829565302914013 -0.15151618589106453 0.001306670801136762 0.005636109141254634 0 0 0 0
14312664 0.9824916301556413 -0.15343373006422123 0.0013784277628789078 0.005741862695253736 0 0 0 0
14312701 0.9819614309022814 -0.154831330297935 0.0013082991147144944 0.006013675793905273 0 0 0 0
14312738 0.9817724090253266 -0.15637577188480656 0.0014504171559427618 0.006231886881993409 0 0 0 0
14312775 0.9814800955897116 -0.1582790546224375 0.0014517716974252147 0.006393863919419692 0 0 0 0
14312812 0.9813209569815319 -0.15969199987465105 0.0016026907043595617 0.006685226626947539 0 0 0 0
14312849 0.9804842981953185 -0.16155016864513985 0.0016678985340469366 0.006857845689672311 0 0 0 0
14312886 0.9800277640895444 -0.16375158835232084 0.0017141703400055293 0.00714790512796829 0 0 0 0
14312923 0.9793561204148226 -0.16525770266822035 0.0018382601612443776 0.007245321844336133 0 0 0 0
14312960 0.9790404929421108 -0.16738637693349373 0.0018714987552401817 0.007652365924811318 0 0 0 0
14312997 0.9785672514328093 -0.1695583392926657 0.0018801636011790605 0.007746308424968916 0 0 0 0
14313034 0.978331652387347 -0.17133607901644676 0.0020385262374449436 0.007959579647868973 0 0 0 0
14313071 0.977504328993041 -0.1735100603603499 0.0022112816018592238 0.008193217514214526 0 0 0 0
14313108 0.9769141761037736 -0.17577798063283676 0.002368691190189041 0.00860383115991676 0 0 0 0
14313145 0.9764273915459982 -0.17811257513049672 0.0023105550831232246 0.008705926310726501 0 0 0 0
14313182 0.9752988730360964 -0.1803996184914004 0.0025372874424776978 0.009020031286345388 0 0 0 0
14313219 0.974887021859171 -0.18315200155111114 0.0025959143936103764 0.009264819201992782 0 0 0 0
14313256 0.9742890522069098 -0.1856384311815176 0.0027499567246720476 0.009673544398327067 0 0 0 0
14313293 0.9737420033909933 -0.18797702708712735 0.002808793484971308 0.00986065584329585 0 0 0 0
14313330 0.9728817854486276 -0.1903494293123304 0.0030209486484823354 0.010367155955494992 0 0 0 0
14313367 0.9716219713199898 -0.19353538187877087 0.003153903998304821 0.010793118654972506 0 0 0 0
14313404 0.9710720859893337 -0.19609982975760956 0.0032151110852177275 0.011190900999748503 0 0 0 0
14313441 0.9702556518712251 -0.1989995825025887 0.0033340815405075333 0.011560496420145868 0 0 0 0
14313478 0.9689802451927607 -0.2020560080678317 0.003581874584155899 0.012019979205609193 0 0 0 0
14313515 0.9682501697502631 -0.20540520692207345 0.0037932966466752197 0.012455625083145351 0 0 0 0
14313552 0.9672927734136031 -0.20821181981433023 0.003989534706966118 0.012994137757733348 0 0 0 0
14313589 0.9660019947777403 -0.21164274392043242 0.004222771755863873 0.013420755347487332 0 0 0 0
14313626 0.9647008637929126 -0.21493536414929995 0.004431633017099939 0.014145527691211428 0 0 0 0
14313663 0.9632840379289774 -0.21851871265661843 0.004635927068022808 0.014743380431507075 0 0 0 0
14313700 0.9618097704826931 -0.22254547398353136 0.004909440547384192 0.015412187678609432 0 0 0 0
14313737 0.9614646240998029 -0.22581809085473112 0.0052287502337008 0.016001137398653036 0 0 0 0
14313774 0.9588387366117939 -0.23009934712923702 0.00568905805391526 0.016868067665426645 0 0 0 0
14313811 0.9573664675746669 -0.2341001752948077 0.0061696108838153775 0.017808053298720452 0 0 0 0
14313848 0.9550465284384105 -0.23828126922866708 0.006517485606787557 0.01850371713613669 0 0 0 0
14313885 0.9532225054607518 -0.2428549983651078 0.006940716911912775 0.01938547592742171 0 0 0 0
14313922 0.9514519543401483 -0.24758414472645343 0.007485542650447174 0.020336069479868775 0 0 0 0
14313959 0.9496823692898879 -0.2522661291059399 0.00808924056053612 0.021132082676326096 0 0 0 0
14313996 0.946748644839705 -0.25726757496166175 0.008905315555140675 0.022221735223172397 0 0 0 0
14314033 0.9442762117023001 -0.263055722443991 0.009502230591740182 0.02324234604974389 0 0 0 0
14314070 0.9413633636998313 -0.26806215948566076 0.010341531178794652 0.024476260446279628 0 0 0 0
14314107 0.9385611637420944 -0.2738316090977573 0.011165866477226862 0.02567483463096516 0 0 0 0
14314144 0.9356054545360846 -0.2797031198577273 0.011991034098346853 0.026883032263223392 0 0 0 0
14314181 0.9316525692962774 -0.28550373948693286 0.01290515728459266 0.02821114342904479 0 0 0 0
14314218 0.9278721572127531 -0.2922645708865622 0.01402018609256639 0.02966135955987187 0 0 0 0
14314255 0.92377331829791 -0.29894547161157026 0.015046693084466236 0.031264451882160704 0 0 0 0
14314292 0.9191386606929731 -0.30570659357946844 0.01633046477509592 0.033191488627686255 0 0 0 0
14314329 0.9148910188428718 -0.31322726300050474 0.01777730979508751 0.03511498293175172 0 0 0 0
14314366 0.909796681640055 -0.32050780861520933 0.01915200655276391 0.03736494057133953 0 0 0 0
14314403 0.9037691484170082 -0.32883045755650014 0.020870736529065063 0.03968040742290779 0 0 0 0
14314440 0.8976266875653249 -0.3380199731990043 0.022908298496095592 0.04221518688979599 0 0 0 0
14314477 0.8911883556785264 -0.34703445438298236 0.025253373346220697 0.04507022329153577 0 0 0 0
14314514 0.8831401606048417 -0.35666499246204664 0.027940751135402828 0.0482614788854824 0 0 0 0
14314551 0.8748510046636986 -0.36648582478950875 0.030996156787903514 0.05172282406893429 0 0 0 0
14314588 0.8651804467081715 -0.3768185945185784 0.03464555077169125 0.055474055825962015 0 0 0 0
14314625 0.8539135462731747 -0.3882969935869588 0.03889433857993894 0.05948084737735758 0 0 0 0
14314662 0.8424950096913076 -0.39972140174509424 0.04399562763503323 0.0637911267064826 0 0 0 0
14314699 0.8293915665152826 -0.4112605125919858 0.04993202501435108 0.06853340187942177 0 0 0 0
14314736 0.8138376666820282 -0.42432184119062943 0.057110392647235865 0.07355583962697518 0 0 0 0
14314773 0.7979149062312085 -0.43679856196389866 0.06564198821481974 0.07871015386402364 0 0 0 0
14314810 0.7784297285835337 -0.45070079759451187 0.07557227187376495 0.08401020361883477 0 0 0 0
14314847 0.7567832286025122 -0.465311401976905 0.08750171238447442 0.08917543522350495 0 0 0 0
14314884 0.7312459042408376 -0.4796509009627594 0.10147123518470806 0.0942270537785812 0 0 0 0
14314921 0.7022003392388709 -0.49373967805610947 0.11820485257443492 0.0986093687724461 0 0 0 0
14314958 0.6670047415868426 -0.5076254981299942 0.1376606247825995 0.10212396345544396 0 0 0 0
14314995 0.6265560931096609 -0.5190302337480723 0.16065058562993534 0.10426378681668481 0 0 0 0
14315032 0.5789171192218762 -0.5279109483296778 0.1882374484896698 0.10384968127914022 0 0 0 0
14315069 0.5238908766933454 -0.5309242978017326 0.2203559879748582 0.09918737964059712 0 0 0 0
14315106 0.46102030294989943 -0.5247103750455051 0.25751226999034166 0.08817406157784947 0 0 0 0
14315143 0.39068394554241404 -0.5069792323434099 0.2987712490069908 0.06769498912864028 0 0 0 0
14315180 0.31656063310928695 -0.47292164950410437 0.3418482691069465 0.03482612162588895 0 0 0 0
14315217 0.24163588114516546 -0.41716363897675973 0.382055767287235 -0.01380440682466079 0 0 0 0
14315254 0.17663961072037274 -0.3404440877824098 0.4124469206552646 -0.07906756252445903 0 0 0 0
14315291 0.12821293364037534 -0.23846702950652832 0.42555710123804685 -0.15831136965584708 0 0 0 0
14315328 0.10829212613346031 -0.12021756969465382 0.41390805102830713 -0.24331300582668994 0 0 0 0
14315365 0.1247588320111588 0.0011934054086345785 0.3766956318511427 -0.3217230801479915 0 0 0 0
14315402 0.17620114181923732 0.1094601240090334 0.32048031285434525 -0.3836514448878322 0 0 0 0
14315439 0.2538373424653881 0.19260900556521537 0.25490700864796256 -0.4240418846643487 0 0 0 0
14315476 0.343946939346446 0.24349769753495368 0.1901562391488412 -0.4448891102558431 0 0 0 0
14315513 0.4312585936694881 0.2649184682287497 0.13202021003494882 -0.45187452569699194 0 0 0 0
14315550 0.5092380306553264 0.2641200954846862 0.08168421850426107 -0.45045260116286606 0 0 0 0
14315587 0.5731793270689229 0.2489686111663967 0.038733549700015545 -0.44536370397569747 0 0 0 0
14315624 0.6243126990762725 0.22635482284985203 0.0018159255332124693 -0.43859284109063346 0 0 0 0
14315661 0.6645304993556886 0.19910606139416603 -0.031266760949786906 -0.4317052372937588 0 0 0 0
14315698 0.6943861269410081 0.17046102407925826 -0.061390285806995494 -0.4255562795337357 0 0 0 0
14315735 0.7160095606842267 0.14135947897503637 -0.09016080401935132 -0.42003565320103836 0 0 0 0
14315772 0.7312947081930553 0.11224890866077565 -0.11865064103738376 -0.4152155672057454 0 0 0 0
14315809 0.7402139356572561 0.08471748931132066 -0.14722020193321633 -0.41083291957160956 0 0 0 0
14315846 0.7435756676418493 0.05839625251804802 -0.1770578861531054 -0.40634386998225347 0 0 0 0
14315883 0.7419348000537946 0.03235784328772292 -0.20873827852347188 -0.40176599373403254 0 0 0 0
14315920 0.7355070456344824 0.008435159487336294 -0.24261215118521334 -0.3957849699146814 0 0 0 0
14315957 0.7243873947538576 -0.0127288373862871 -0.27975466221246026 -0.3878487401612604 0 0 0 0
14315994 0.7089464793425035 -0.031054374273727127 -0.31959878790286483 -0.3766942739814392 0 0 0 0
14316031 0.6880902451020597 -0.04567133811569991 -0.36266162152584464 -0.3606125721269629 0 0 0 0
14316068 0.6636829238511691 -0.05566201627140699 -0.4083064310669809 -0.33813004806631586 0 0 0 0
14316105 0.6361039356913879 -0.06005563059926014 -0.45570457856723007 -0.30758755448030234 0 0 0 0
14316142 0.6056857527535006 -0.057449640027053404 -0.5029950328226565 -0.2673251604992767 0 0 0 0
14316179 0.57536365115788 -0.04710417241320949 -0.5467633957276233 -0.21586495853477922 0 0 0 0
14316216 0.545684646133721 -0.028317124725605394 -0.5841353545744319 -0.15326742376565747 0 0 0 0
14316253 0.519458532572196 -0.0015107443780141606 -0.6107058722849504 -0.08061833967773167 0 0 0 0
14316290 0.49974727527806706 0.03223250640134998 -0.6230136326310232 -0.0008028401215620064 0 0 0 0
14316327 0.48873542082578103 0.07157093303025344 -0.6186624008444135 0.08167362881237407 0 0 0 0
14316364 0.487318540260828 0.11318360662326768 -0.59773579536977 0.1611100584397574 0 0 0 0
14316401 0.4961186797878434 0.15326959218847164 -0.5618181346140543 0.2323700815759763 0 0 0 0
14316438 0.5136803630917831 0.1893615654883672 -0.5150618925968288 0.2925241075402053 0 0 0 0
14316475 0.5375963791017365 0.21907994912286224 -0.46217163839682285 0.3401565087024782 0 0 0 0
14316512 0.5655020191896578 0.24121226055709244 -0.4072435343790844 0.37518056078292805 0 0 0 0
14316549 0.594736689746818 0.25631729186814206 -0.3530368778464827 0.4002490789603096 0 0 0 0
14316586 0.6230349154337074 0.26482319935378384 -0.30167320659743435 0.4169862210682496 0 0 0 0
14316623 0.6497369579109742 0.2679750823360167 -0.2535836526690141 0.4276214130469726 0 0 0 0
14316660 0.6734808728321832 0.2666631319351745 -0.20902886654594774 0.43422437009789316 0 0 0 0
14316697 0.6941850233848877 0.26196136595300207 -0.16726881006503483 0.4380007225530546 0 0 0 0
14316734 0.71181175818035 0.25532901530207686 -0.12779095295940365 0.4397409896660011 0 0 0 0
14316771 0.7254740976083554 0.24767255187601925 -0.08986098457914124 0.440612785376553 0 0 0 0
14316808 0.7358677356178127 0.23822869409015895 -0.05254612195278162 0.4403953554218509 0 0 0 0
14316845 0.7431326585956921 0.22909102776152104 -0.014734548578766632 0.4392213687932327 0 0 0 0
14316882 0.7469055018689411 0.2200695305199652 0.024326162617084025 0.4366876346318382 0 0 0 0
14316919 0.747626708906351 0.21228647726571068 0.06576894931829345 0.4318280448907624 0 0 0 0
14316956 0.7448355748999085 0.20658449254022618 0.11011044887032162 0.42337888634161186 0 0 0 0
14316993 0.7392317062912692 0.20389411205461141 0.1571511436202056 0.40880491126758667 0 0 0 0
14317030 0.731540377380479 0.20437036773799794 0.20648956740915816 0.3864828659680351 0 0 0 0
14317067 0.7228063509890138 0.21086599237759837 0.2553665942563128 0.3533215124343333 0 0 0 0
14317104 0.7153758307066579 0.22157349120347716 0.3001976546588738 0.30802561692608427 0 0 0 0
14317141 0.7113358733119791 0.23902232160661407 0.33566399235447897 0.25047920617731056 0 0 0 0
14317178 0.7118981887315468 0.26028748239247773 0.3564275439067434 0.18345897833920186 0 0 0 0
14317215 0.7206511723314741 0.28299894033409967 0.358199984375478 0.11391804751438617 0 0 0 0
14317252 0.7373893324341081 0.304162226936374 0.3411533340255477 0.0492062343681247 0 0 0 0
14317289 0.7608505305380381 0.32069386320750626 0.3095131446818154 -0.0032279649298234086 0 0 0 0
14317326 0.7869657810354882 0.32965296759444673 0.2705998980025605 -0.04060912686009347 0 0 0 0
14317363 0.813138629702976 0.3321465066380113 0.2311557027345621 -0.0638053106369148 0 0 0 0
14317400 0.8370174405974643 0.3288952615080174 0.19493141973674888 -0.07585754875083574 0 0 0 0
